Id,Time[ns],0:I²C: Address/Data
1,983000.00,Start
2,987000.00,Address write: 02
3,1005000.00,Write
4,1008000.00,NACK
5,1013000.00,Stop
6,1022000.00,Start
7,1026000.00,Address write: 04
8,1044000.00,Write
9,1047000.00,NACK
10,1052000.00,Stop
11,1061000.00,Start
12,1064000.00,Address write: 06
13,1083000.00,Write
14,1086000.00,NACK
15,1090000.00,Stop
16,1100000.00,Start
17,1103000.00,Address write: 08
18,1122000.00,Write
19,1125000.00,NACK
20,1129000.00,Stop
21,1138000.00,Start
22,1142000.00,Address write: 0A
23,1161000.00,Write
24,1164000.00,NACK
25,1168000.00,Stop
26,1177000.00,Start
27,1181000.00,Address write: 0C
28,1200000.00,Write
29,1202000.00,NACK
30,1207000.00,Stop
31,1216000.00,Start
32,1220000.00,Address write: 0E
33,1239000.00,Write
34,1241000.00,NACK
35,1246000.00,Stop
36,1255000.00,Start
37,1259000.00,Address write: 10
38,1277000.00,Write
39,1280000.00,NACK
40,1285000.00,Stop
41,1294000.00,Start
42,1297000.00,Address write: 12
43,1316000.00,Write
44,1319000.00,NACK
45,1324000.00,Stop
46,1333000.00,Start
47,1336000.00,Address write: 14
48,1355000.00,Write
49,1358000.00,NACK
50,1362000.00,Stop
51,1372000.00,Start
52,1375000.00,Address write: 16
53,1394000.00,Write
54,1397000.00,NACK
55,1401000.00,Stop
56,1410000.00,Start
57,1414000.00,Address write: 18
58,1433000.00,Write
59,1436000.00,NACK
60,1440000.00,Stop
61,1449000.00,Start
62,1453000.00,Address write: 1A
63,1472000.00,Write
64,1474000.00,NACK
65,1479000.00,Stop
66,1488000.00,Start
67,1492000.00,Address write: 1C
68,1511000.00,Write
69,1513000.00,NACK
70,1518000.00,Stop
71,1527000.00,Start
72,1531000.00,Address write: 1E
73,1549000.00,Write
74,1552000.00,NACK
75,1557000.00,Stop
76,1566000.00,Start
77,1569000.00,Address write: 20
78,1588000.00,Write
79,1591000.00,NACK
80,1595000.00,Stop
81,1605000.00,Start
82,1608000.00,Address write: 22
83,1627000.00,Write
84,1630000.00,NACK
85,1634000.00,Stop
86,1644000.00,Start
87,1647000.00,Address write: 24
88,1666000.00,Write
89,1669000.00,NACK
90,1673000.00,Stop
91,1682000.00,Start
92,1686000.00,Address write: 26
93,1705000.00,Write
94,1708000.00,NACK
95,1712000.00,Stop
96,1721000.00,Start
97,1725000.00,Address write: 28
98,1744000.00,Write
99,1746000.00,NACK
100,1751000.00,Stop
101,1760000.00,Start
102,1764000.00,Address write: 2A
103,1783000.00,Write
104,1785000.00,NACK
105,1790000.00,Stop
106,1799000.00,Start
107,1803000.00,Address write: 2C
108,1821000.00,Write
109,1824000.00,NACK
110,1829000.00,Stop
111,1838000.00,Start
112,1841000.00,Address write: 2E
113,1860000.00,Write
114,1863000.00,NACK
115,1867000.00,Stop
116,1877000.00,Start
117,1880000.00,Address write: 30
118,1899000.00,Write
119,1902000.00,NACK
120,1906000.00,Stop
121,1916000.00,Start
122,1919000.00,Address write: 32
123,1938000.00,Write
124,1941000.00,NACK
125,1945000.00,Stop
126,1954000.00,Start
127,1958000.00,Address write: 34
128,1977000.00,Write
129,1980000.00,NACK
130,1984000.00,Stop
131,1994000.00,Start
132,1997000.00,Address write: 36
133,2016000.00,Write
134,2019000.00,NACK
135,2023000.00,Stop
136,2032000.00,Start
137,2036000.00,Address write: 38
138,2055000.00,Write
139,2058000.00,NACK
140,2062000.00,Stop
141,2072000.00,Start
142,2075000.00,Address write: 3A
143,2094000.00,Write
144,2097000.00,NACK
145,2101000.00,Stop
146,2110000.00,Start
147,2114000.00,Address write: 3C
148,2133000.00,Write
149,2136000.00,NACK
150,2140000.00,Stop
151,2149000.00,Start
152,2153000.00,Address write: 3E
153,2172000.00,Write
154,2174000.00,NACK
155,2179000.00,Stop
156,2188000.00,Start
157,2192000.00,Address write: 40
158,2211000.00,Write
159,2213000.00,NACK
160,2218000.00,Stop
161,2227000.00,Start
162,2231000.00,Address write: 42
163,2249000.00,Write
164,2252000.00,NACK
165,2257000.00,Stop
166,2266000.00,Start
167,2269000.00,Address write: 44
168,2288000.00,Write
169,2291000.00,NACK
170,2295000.00,Stop
171,2305000.00,Start
172,2308000.00,Address write: 46
173,2327000.00,Write
174,2330000.00,NACK
175,2334000.00,Stop
176,2344000.00,Start
177,2351000.00,Start repeat
178,2353000.00,Address write: 22
179,2372000.00,Write
180,2373000.00,Stop
181,2382000.00,Start
182,2386000.00,Address write: 4A
183,2405000.00,Write
184,2408000.00,NACK
185,2412000.00,Stop
186,2421000.00,Start
187,2425000.00,Address write: 4C
188,2444000.00,Write
189,2446000.00,NACK
190,2451000.00,Stop
191,2460000.00,Start
192,2464000.00,Address write: 4E
193,2483000.00,Write
194,2485000.00,NACK
195,2490000.00,Stop
196,2499000.00,Start
197,2503000.00,Address write: 50
198,2521000.00,Write
199,2524000.00,NACK
200,2529000.00,Stop
201,2538000.00,Start
202,2541000.00,Address write: 52
203,2560000.00,Write
204,2563000.00,NACK
205,2567000.00,Stop
206,2577000.00,Start
207,2580000.00,Address write: 54
208,2599000.00,Write
209,2602000.00,NACK
210,2606000.00,Stop
211,2616000.00,Start
212,2619000.00,Address write: 56
213,2638000.00,Write
214,2641000.00,NACK
215,2645000.00,Stop
216,2654000.00,Start
217,2658000.00,Address write: 58
218,2677000.00,Write
219,2680000.00,NACK
220,2684000.00,Stop
221,2693000.00,Start
222,2697000.00,Address write: 5A
223,2716000.00,Write
224,2718000.00,NACK
225,2723000.00,Stop
226,2732000.00,Start
227,2736000.00,Address write: 5C
228,2755000.00,Write
229,2757000.00,NACK
230,2762000.00,Stop
231,2771000.00,Start
232,2775000.00,Address write: 5E
233,2793000.00,Write
234,2796000.00,NACK
235,2801000.00,Stop
236,2810000.00,Start
237,2813000.00,Address write: 60
238,2832000.00,Write
239,2835000.00,NACK
240,2840000.00,Stop
241,2849000.00,Start
242,2853000.00,Address write: 62
243,2871000.00,Write
244,2874000.00,NACK
245,2879000.00,Stop
246,2888000.00,Start
247,2891000.00,Address write: 64
248,2910000.00,Write
249,2913000.00,NACK
250,2917000.00,Stop
251,2927000.00,Start
252,2930000.00,Address write: 66
253,2949000.00,Write
254,2952000.00,NACK
255,2956000.00,Stop
256,2966000.00,Start
257,2969000.00,Address write: 68
258,2988000.00,Write
259,2991000.00,NACK
260,2995000.00,Stop
261,3005000.00,Start
262,3008000.00,Address write: 6A
263,3027000.00,Write
264,3030000.00,NACK
265,3034000.00,Stop
266,3044000.00,Start
267,3047000.00,Address write: 6C
268,3066000.00,Write
269,3069000.00,NACK
270,3073000.00,Stop
271,3082000.00,Start
272,3086000.00,Address write: 6E
273,3105000.00,Write
274,3108000.00,NACK
275,3112000.00,Stop
276,3121000.00,Start
277,3125000.00,Address write: 70
278,3144000.00,Write
279,3146000.00,NACK
280,3151000.00,Stop
281,3160000.00,Start
282,3164000.00,Address write: 72
283,3183000.00,Write
284,3185000.00,NACK
285,3190000.00,Stop
286,3199000.00,Start
287,3203000.00,Address write: 74
288,3221000.00,Write
289,3224000.00,NACK
290,3229000.00,Stop
291,3238000.00,Start
292,3241000.00,Address write: 76
293,3260000.00,Write
294,3263000.00,NACK
295,3267000.00,Stop
296,3277000.00,Start
297,3280000.00,Address write: 78
298,3299000.00,Write
299,3302000.00,NACK
300,3306000.00,Stop
301,3316000.00,Start
302,3319000.00,Address write: 7A
303,3338000.00,Write
304,3341000.00,NACK
305,3345000.00,Stop
306,3354000.00,Start
307,3358000.00,Address write: 7C
308,3377000.00,Write
309,3380000.00,NACK
310,3384000.00,Stop
311,3393000.00,Start
312,3397000.00,Address write: 7E
313,3416000.00,Write
314,3419000.00,NACK
315,3423000.00,Stop
316,3432000.00,Start
317,3436000.00,Address write: 80
318,3455000.00,Write
319,3458000.00,NACK
320,3462000.00,Stop
321,3471000.00,Start
322,3475000.00,Address write: 82
323,3494000.00,Write
324,3496000.00,NACK
325,3501000.00,Stop
326,3510000.00,Start
327,3514000.00,Address write: 84
328,3533000.00,Write
329,3535000.00,NACK
330,3540000.00,Stop
331,3549000.00,Start
332,3553000.00,Address write: 86
333,3571000.00,Write
334,3574000.00,NACK
335,3579000.00,Stop
336,3588000.00,Start
337,3591000.00,Address write: 88
338,3610000.00,Write
339,3613000.00,NACK
340,3617000.00,Stop
341,3627000.00,Start
342,3630000.00,Address write: 8A
343,3649000.00,Write
344,3652000.00,NACK
345,3656000.00,Stop
346,3666000.00,Start
347,3669000.00,Address write: 8C
348,3688000.00,Write
349,3691000.00,NACK
350,3695000.00,Stop
351,3704000.00,Start
352,3708000.00,Address write: 8E
353,3727000.00,Write
354,3730000.00,NACK
355,3734000.00,Stop
356,3743000.00,Start
357,3747000.00,Address write: 90
358,3766000.00,Write
359,3768000.00,NACK
360,3773000.00,Stop
361,3782000.00,Start
362,3786000.00,Address write: 92
363,3805000.00,Write
364,3807000.00,NACK
365,3812000.00,Stop
366,3821000.00,Start
367,3825000.00,Address write: 94
368,3843000.00,Write
369,3846000.00,NACK
370,3851000.00,Stop
371,3860000.00,Start
372,3863000.00,Address write: 96
373,3882000.00,Write
374,3885000.00,NACK
375,3889000.00,Stop
376,3899000.00,Start
377,3902000.00,Address write: 98
378,3921000.00,Write
379,3924000.00,NACK
380,3928000.00,Stop
381,3938000.00,Start
382,3941000.00,Address write: 9A
383,3960000.00,Write
384,3963000.00,NACK
385,3967000.00,Stop
386,3976000.00,Start
387,3980000.00,Address write: 9C
388,3999000.00,Write
389,4001000.00,NACK
390,4006000.00,Stop
391,4015000.00,Start
392,4019000.00,Address write: 9E
393,4038000.00,Write
394,4040000.00,NACK
395,4045000.00,Stop
396,4054000.00,Start
397,4058000.00,Address write: A0
398,4077000.00,Write
399,4079000.00,NACK
400,4084000.00,Stop
401,4093000.00,Start
402,4097000.00,Address write: A2
403,4115000.00,Write
404,4118000.00,NACK
405,4123000.00,Stop
406,4132000.00,Start
407,4135000.00,Address write: A4
408,4154000.00,Write
409,4157000.00,NACK
410,4162000.00,Stop
411,4171000.00,Start
412,4175000.00,Address write: A6
413,4193000.00,Write
414,4196000.00,NACK
415,4201000.00,Stop
416,4210000.00,Start
417,4213000.00,Address write: A8
418,4232000.00,Write
419,4235000.00,NACK
420,4239000.00,Stop
421,4249000.00,Start
422,4252000.00,Address write: AA
423,4271000.00,Write
424,4274000.00,NACK
425,4279000.00,Stop
426,4288000.00,Start
427,4291000.00,Address write: AC
428,4310000.00,Write
429,4313000.00,NACK
430,4317000.00,Stop
431,4327000.00,Start
432,4330000.00,Address write: AE
433,4349000.00,Write
434,4352000.00,NACK
435,4357000.00,Stop
436,4366000.00,Start
437,4369000.00,Address write: B0
438,4388000.00,Write
439,4391000.00,NACK
440,4395000.00,Stop
441,4405000.00,Start
442,4408000.00,Address write: B2
443,4427000.00,Write
444,4430000.00,NACK
445,4434000.00,Stop
446,4444000.00,Start
447,4447000.00,Address write: B4
448,4466000.00,Write
449,4469000.00,NACK
450,4473000.00,Stop
451,4482000.00,Start
452,4486000.00,Address write: B6
453,4505000.00,Write
454,4508000.00,NACK
455,4512000.00,Stop
456,4521000.00,Start
457,4525000.00,Address write: B8
458,4544000.00,Write
459,4546000.00,NACK
460,4551000.00,Stop
461,4560000.00,Start
462,4564000.00,Address write: BA
463,4583000.00,Write
464,4585000.00,NACK
465,4590000.00,Stop
466,4599000.00,Start
467,4603000.00,Address write: BC
468,4621000.00,Write
469,4624000.00,NACK
470,4629000.00,Stop
471,4638000.00,Start
472,4641000.00,Address write: BE
473,4660000.00,Write
474,4663000.00,NACK
475,4667000.00,Stop
476,4677000.00,Start
477,4680000.00,Address write: C0
478,4699000.00,Write
479,4702000.00,NACK
480,4706000.00,Stop
481,4716000.00,Start
482,4719000.00,Address write: C2
483,4738000.00,Write
484,4741000.00,NACK
485,4745000.00,Stop
486,4754000.00,Start
487,4758000.00,Address write: C4
488,4777000.00,Write
489,4780000.00,NACK
490,4784000.00,Stop
491,4793000.00,Start
492,4797000.00,Address write: C6
493,4816000.00,Write
494,4818000.00,NACK
495,4823000.00,Stop
496,4832000.00,Start
497,4836000.00,Address write: C8
498,4855000.00,Write
499,4857000.00,NACK
500,4862000.00,Stop
501,4871000.00,Start
502,4875000.00,Address write: CA
503,4893000.00,Write
504,4896000.00,NACK
505,4901000.00,Stop
506,4910000.00,Start
507,4914000.00,Address write: CC
508,4933000.00,Write
509,4935000.00,NACK
510,4940000.00,Stop
511,4949000.00,Start
512,4953000.00,Address write: CE
513,4971000.00,Write
514,4974000.00,NACK
515,4979000.00,Stop
516,4988000.00,Start
517,4991000.00,Address write: D0
518,5010000.00,Write
519,5013000.00,NACK
520,5017000.00,Stop
521,5027000.00,Start
522,5030000.00,Address write: D2
523,5049000.00,Write
524,5052000.00,NACK
525,5056000.00,Stop
526,5066000.00,Start
527,5069000.00,Address write: D4
528,5088000.00,Write
529,5091000.00,NACK
530,5095000.00,Stop
531,5104000.00,Start
532,5108000.00,Address write: D6
533,5127000.00,Write
534,5130000.00,NACK
535,5134000.00,Stop
536,5144000.00,Start
537,5147000.00,Address write: D8
538,5166000.00,Write
539,5169000.00,NACK
540,5173000.00,Stop
541,5182000.00,Start
542,5186000.00,Address write: DA
543,5205000.00,Write
544,5208000.00,NACK
545,5212000.00,Stop
546,5221000.00,Start
547,5225000.00,Address write: DC
548,5244000.00,Write
549,5246000.00,NACK
550,5251000.00,Stop
551,5260000.00,Start
552,5264000.00,Address write: DE
553,5283000.00,Write
554,5285000.00,NACK
555,5290000.00,Stop
556,5299000.00,Start
557,5303000.00,Address write: E0
558,5321000.00,Write
559,5324000.00,NACK
560,5329000.00,Stop
561,5338000.00,Start
562,5341000.00,Address write: E2
563,5360000.00,Write
564,5363000.00,NACK
565,5368000.00,Stop
566,5377000.00,Start
567,5381000.00,Address write: E4
568,5399000.00,Write
569,5402000.00,NACK
570,5407000.00,Stop
571,5416000.00,Start
572,5419000.00,Address write: E6
573,5438000.00,Write
574,5441000.00,NACK
575,5445000.00,Stop
576,5455000.00,Start
577,5458000.00,Address write: E8
578,5477000.00,Write
579,5480000.00,NACK
580,5484000.00,Stop
581,5494000.00,Start
582,5497000.00,Address write: EA
583,5516000.00,Write
584,5519000.00,NACK
585,5523000.00,Stop
586,5532000.00,Start
587,5536000.00,Address write: EC
588,5555000.00,Write
589,5558000.00,NACK
590,5562000.00,Stop
591,5571000.00,Start
592,5575000.00,Address write: EE
593,5594000.00,Write
594,5596000.00,NACK
595,5601000.00,Stop
596,5610000.00,Start
597,5614000.00,Address write: F0
598,5633000.00,Write
599,5635000.00,NACK
600,5640000.00,Stop
601,5649000.00,Start
602,5653000.00,Address write: F2
603,5671000.00,Write
604,5674000.00,NACK
605,5679000.00,Stop
606,5688000.00,Start
607,5691000.00,Address write: F4
608,5710000.00,Write
609,5713000.00,NACK
610,5717000.00,Stop
611,5727000.00,Start
612,5730000.00,Address write: F6
613,5749000.00,Write
614,5752000.00,NACK
615,5756000.00,Stop
616,5766000.00,Start
617,5769000.00,Address write: F8
618,5788000.00,Write
619,5791000.00,NACK
620,5795000.00,Stop
621,5804000.00,Start
622,5808000.00,Address write: FA
623,5827000.00,Write
624,5830000.00,NACK
625,5834000.00,Stop
626,5843000.00,Start
627,5847000.00,Address write: FC
628,5866000.00,Write
629,5868000.00,NACK
630,5873000.00,Stop
631,7636000.00,Start
632,7639000.00,Address write: 20
633,7658000.00,Write
634,7661000.00,NACK
635,7665000.00,Stop
636,13599000.00,Start
637,13603000.00,Address write: 20
638,13621000.00,Write
639,13624000.00,NACK
640,13629000.00,Stop
